Time [s],Value,Parity Error,Framing Error
0.028634900000000,\r (0x0D),,
0.028730400000000,0 (0x30),,
0.028825800000000,0 (0x30),,
0.028921300000000,1 (0x31),,
0.029016700000000,4 (0x34),,
0.029112200000000,0 (0x30),,
0.029207700000000,0 (0x30),,
0.029303100000000,1 (0x31),,
0.029398600000000,1 (0x31),,
0.029494000000000,3 (0x33),,
0.029589500000000,1 (0x31),,
0.029684900000000,0 (0x30),,
0.029780400000000,0 (0x30),,
0.029875800000000,0 (0x30),,
0.029971300000000,2 (0x32),,
0.030066700000000,0 (0x30),,
0.030162200000000,0 (0x30),,
0.030257600000000,1 (0x31),,
0.030353100000000,1 (0x31),,
0.030448500000000,0 (0x30),,
0.030544000000000,1 (0x31),,
0.030639400000000,0 (0x30),,
0.030734900000000,'0' (0x00),,
0.030830400000000,'0' (0x00),,
0.030925800000000,'0' (0x00),,
0.031021300000000,'0' (0x00),,
0.031116700000000,'0' (0x00),,
0.031212200000000,'4' (0x04),,
0.031307600000000,'0' (0x00),,
0.031403100000000,\n (0x0A),,
0.128581800000000,\r (0x0D),,
0.128677300000000,0 (0x30),,
0.128772700000000,0 (0x30),,
0.128868200000000,1 (0x31),,
0.128963600000000,4 (0x34),,
0.129059100000000,0 (0x30),,
0.129154500000000,0 (0x30),,
0.129250000000000,1 (0x31),,
0.129345500000000,1 (0x31),,
0.129440900000000,3 (0x33),,
0.129536400000000,1 (0x31),,
0.129631800000000,0 (0x30),,
0.129727200000000,0 (0x30),,
0.129822700000000,0 (0x30),,
0.129918200000000,2 (0x32),,
0.130013600000000,0 (0x30),,
0.130109100000000,0 (0x30),,
0.130204500000000,1 (0x31),,
0.130300000000000,1 (0x31),,
0.130395400000000,0 (0x30),,
0.130490900000000,1 (0x31),,
0.130586300000000,0 (0x30),,
0.130681800000000,'0' (0x00),,
0.130777200000000,'0' (0x00),,
0.130872700000000,'0' (0x00),,
0.130968200000000,'0' (0x00),,
0.131063600000000,'0' (0x00),,
0.131159100000000,'4' (0x04),,
0.131254500000000,'0' (0x00),,
0.131350000000000,\n (0x0A),,
0.228683200000000,\r (0x0D),,
0.228778600000000,0 (0x30),,
0.228874100000000,0 (0x30),,
0.228969500000000,1 (0x31),,
0.229065000000000,4 (0x34),,
0.229160400000000,0 (0x30),,
0.229255900000000,0 (0x30),,
0.229351300000000,1 (0x31),,
0.229446800000000,1 (0x31),,
0.229542200000000,3 (0x33),,
0.229637700000000,1 (0x31),,
0.229733100000000,0 (0x30),,
0.229828600000000,0 (0x30),,
0.229924000000000,0 (0x30),,
0.230019500000000,2 (0x32),,
0.230115000000000,0 (0x30),,
0.230210400000000,0 (0x30),,
0.230305900000000,1 (0x31),,
0.230401300000000,1 (0x31),,
0.230496800000000,0 (0x30),,
0.230592200000000,1 (0x31),,
0.230687700000000,0 (0x30),,
0.230783100000000,'0' (0x00),,
0.230878600000000,'0' (0x00),,
0.230974100000000,'0' (0x00),,
0.231069500000000,'0' (0x00),,
0.231164900000000,'0' (0x00),,
0.231260400000000,'4' (0x04),,
0.231355800000000,'0' (0x00),,
0.231451300000000,\n (0x0A),,
0.328687700000000,\r (0x0D),,
0.328783100000000,0 (0x30),,
0.328878600000000,0 (0x30),,
0.328974100000000,1 (0x31),,
0.329078200000000,2 (0x32),,
0.329173700000000,0 (0x30),,
0.329269100000000,0 (0x30),,
0.329364600000000,1 (0x31),,
0.329460000000000,1 (0x31),,
0.329555500000000,3 (0x33),,
0.329650900000000,1 (0x31),,
0.329746300000000,0 (0x30),,
0.329841800000000,0 (0x30),,
0.329937300000000,0 (0x30),,
0.330032700000000,2 (0x32),,
0.330128200000000,0 (0x30),,
0.330223600000000,0 (0x30),,
0.330319100000000,1 (0x31),,
0.330414500000000,1 (0x31),,
0.330510000000000,0 (0x30),,
0.330605400000000,1 (0x31),,
0.330700900000000,0 (0x30),,
0.330796400000000,'0' (0x00),,
0.330891800000000,'0' (0x00),,
0.330987300000000,'0' (0x00),,
0.331082700000000,'0' (0x00),,
0.331178200000000,'0' (0x00),,
0.331273600000000,'3' (0x03),,
0.331369100000000,'254' (0xFE),,
0.331464500000000,\n (0x0A),,
0.428676300000000,\r (0x0D),,
0.428771700000000,0 (0x30),,
0.428867200000000,0 (0x30),,
0.428962600000000,1 (0x31),,
0.429058100000000,4 (0x34),,
0.429153500000000,0 (0x30),,
0.429249000000000,0 (0x30),,
0.429344400000000,1 (0x31),,
0.429439900000000,3 (0x33),,
0.429535300000000,3 (0x33),,
0.429630800000000,1 (0x31),,
0.429726200000000,0 (0x30),,
0.429821700000000,0 (0x30),,
0.429917100000000,0 (0x30),,
0.430012600000000,2 (0x32),,
0.430108000000000,0 (0x30),,
0.430203500000000,0 (0x30),,
0.430299000000000,1 (0x31),,
0.430394400000000,1 (0x31),,
0.430489900000000,0 (0x30),,
0.430585300000000,1 (0x31),,
0.430680800000000,0 (0x30),,
0.430776200000000,'0' (0x00),,
0.430871700000000,'0' (0x00),,
0.430967100000000,'0' (0x00),,
0.431062600000000,'0' (0x00),,
0.431158100000000,'0' (0x00),,
0.431253500000000,'4' (0x04),,
0.431348900000000,'2' (0x02),,
0.431444400000000,\n (0x0A),,
0.528566300000000,\r (0x0D),,
0.528661800000000,0 (0x30),,
0.528757200000000,0 (0x30),,
0.528852700000000,1 (0x31),,
0.528948100000000,4 (0x34),,
0.529043600000000,0 (0x30),,
0.529139000000000,0 (0x30),,
0.529234500000000,1 (0x31),,
0.529330000000000,1 (0x31),,
0.529425400000000,3 (0x33),,
0.529520900000000,1 (0x31),,
0.529616300000000,0 (0x30),,
0.529711800000000,0 (0x30),,
0.529807200000000,0 (0x30),,
0.529902700000000,2 (0x32),,
0.529998100000000,0 (0x30),,
0.530093600000000,0 (0x30),,
0.530189100000000,1 (0x31),,
0.530284500000000,1 (0x31),,
0.530380000000000,0 (0x30),,
0.530475400000000,1 (0x31),,
0.530570800000000,0 (0x30),,
0.530666300000000,'0' (0x00),,
0.530761700000000,'0' (0x00),,
0.530857200000000,'0' (0x00),,
0.530952700000000,'0' (0x00),,
0.531048100000000,'0' (0x00),,
0.531143600000000,'4' (0x04),,
0.531239000000000,'0' (0x00),,
0.531334500000000,\n (0x0A),,
0.628669600000000,\r (0x0D),,
0.628765000000000,0 (0x30),,
0.628860500000000,0 (0x30),,
0.628956000000000,1 (0x31),,
0.629051400000000,6 (0x36),,
0.629146900000000,0 (0x30),,
0.629242300000000,0 (0x30),,
0.629337800000000,1 (0x31),,
0.629433200000000,1 (0x31),,
0.629528700000000,3 (0x33),,
0.629624100000000,1 (0x31),,
0.629719600000000,0 (0x30),,
0.629815100000000,0 (0x30),,
0.629910500000000,0 (0x30),,
0.630006000000000,2 (0x32),,
0.630101400000000,0 (0x30),,
0.630196900000000,0 (0x30),,
0.630292300000000,1 (0x31),,
0.630387800000000,1 (0x31),,
0.630483200000000,0 (0x30),,
0.630578700000000,1 (0x31),,
0.630674100000000,0 (0x30),,
0.630769600000000,'0' (0x00),,
0.630865000000000,'0' (0x00),,
0.630960500000000,'0' (0x00),,
0.631055900000000,'0' (0x00),,
0.631151400000000,'0' (0x00),,
0.631246800000000,'4' (0x04),,
0.631342300000000,'2' (0x02),,
0.631437700000000,\n (0x0A),,
0.728628900000000,\r (0x0D),,
0.728724400000000,0 (0x30),,
0.728819800000000,0 (0x30),,
0.728915300000000,1 (0x31),,
0.729010700000000,4 (0x34),,
0.729106200000000,0 (0x30),,
0.729201700000000,0 (0x30),,
0.729297100000000,1 (0x31),,
0.729392600000000,1 (0x31),,
0.729488000000000,3 (0x33),,
0.729583500000000,1 (0x31),,
0.729678900000000,0 (0x30),,
0.729774400000000,0 (0x30),,
0.729869800000000,0 (0x30),,
0.729965300000000,2 (0x32),,
0.730060800000000,0 (0x30),,
0.730156200000000,0 (0x30),,
0.730251700000000,1 (0x31),,
0.730347100000000,1 (0x31),,
0.730442500000000,0 (0x30),,
0.730538000000000,1 (0x31),,
0.730633400000000,0 (0x30),,
0.730728900000000,'0' (0x00),,
0.730824400000000,'0' (0x00),,
0.730919800000000,'0' (0x00),,
0.731015300000000,'0' (0x00),,
0.731110700000000,'0' (0x00),,
0.731206200000000,'4' (0x04),,
0.731301600000000,'0' (0x00),,
0.731397100000000,\n (0x0A),,
0.828659900000000,\r (0x0D),,
0.828755300000000,0 (0x30),,
0.828850800000000,0 (0x30),,
0.828946200000000,1 (0x31),,
0.829041700000000,6 (0x36),,
0.829137100000000,0 (0x30),,
0.829232600000000,0 (0x30),,
0.829328000000000,1 (0x31),,
0.829423500000000,1 (0x31),,
0.829518900000000,3 (0x33),,
0.829614400000000,1 (0x31),,
0.829709900000000,0 (0x30),,
0.829805300000000,0 (0x30),,
0.829900700000000,0 (0x30),,
0.829996200000000,2 (0x32),,
0.830091600000000,0 (0x30),,
0.830187100000000,0 (0x30),,
0.830282500000000,1 (0x31),,
0.830378000000000,1 (0x31),,
0.830473500000000,0 (0x30),,
0.830568900000000,1 (0x31),,
0.830664400000000,0 (0x30),,
0.830759800000000,'0' (0x00),,
0.830855300000000,'0' (0x00),,
0.830950700000000,'0' (0x00),,
0.831046200000000,'0' (0x00),,
0.831141600000000,'0' (0x00),,
0.831237100000000,'4' (0x04),,
0.831332600000000,'2' (0x02),,
0.831428000000000,\n (0x0A),,
0.928619000000000,\r (0x0D),,
0.928714400000000,0 (0x30),,
0.928809900000000,0 (0x30),,
0.928905300000000,1 (0x31),,
0.929000800000000,4 (0x34),,
0.929096200000000,0 (0x30),,
0.929191700000000,0 (0x30),,
0.929287100000000,1 (0x31),,
0.929382600000000,1 (0x31),,
0.929478100000000,3 (0x33),,
0.929573500000000,1 (0x31),,
0.929669000000000,0 (0x30),,
0.929764400000000,0 (0x30),,
0.929859900000000,0 (0x30),,
0.929955300000000,2 (0x32),,
0.930050800000000,0 (0x30),,
0.930146200000000,0 (0x30),,
0.930241700000000,1 (0x31),,
0.930337100000000,1 (0x31),,
0.930432600000000,0 (0x30),,
0.930528100000000,1 (0x31),,
0.930623500000000,0 (0x30),,
0.930718900000000,'0' (0x00),,
0.930814400000000,'0' (0x00),,
0.930909800000000,'0' (0x00),,
0.931005300000000,'0' (0x00),,
0.931100800000000,'0' (0x00),,
0.931196200000000,'4' (0x04),,
0.931291700000000,'0' (0x00),,
0.931387100000000,\n (0x0A),,
1.028573100000000,\r (0x0D),,
1.028668600000000,0 (0x30),,
1.028764000000000,0 (0x30),,
1.028859500000000,1 (0x31),,
1.028954900000000,4 (0x34),,
1.029050400000000,0 (0x30),,
1.029145800000000,0 (0x30),,
1.029241300000000,1 (0x31),,
1.029336700000000,1 (0x31),,
1.029432200000000,3 (0x33),,
1.029527600000000,1 (0x31),,
1.029623100000000,0 (0x30),,
1.029718500000000,0 (0x30),,
1.029814000000000,0 (0x30),,
1.029909400000000,2 (0x32),,
1.030004900000000,0 (0x30),,
1.030100400000000,0 (0x30),,
1.030195800000000,1 (0x31),,
1.030291300000000,1 (0x31),,
1.030386700000000,0 (0x30),,
1.030482200000000,1 (0x31),,
1.030577600000000,0 (0x30),,
1.030673100000000,'0' (0x00),,
1.030768500000000,'0' (0x00),,
1.030864000000000,'0' (0x00),,
1.030959400000000,'0' (0x00),,
1.031054900000000,'0' (0x00),,
1.031150400000000,'4' (0x04),,
1.031245800000000,'0' (0x00),,
1.031341300000000,\n (0x0A),,
1.128542300000000,\r (0x0D),,
1.128637800000000,0 (0x30),,
1.128733200000000,0 (0x30),,
1.128828700000000,1 (0x31),,
1.128924100000000,6 (0x36),,
1.129019600000000,0 (0x30),,
1.129115000000000,0 (0x30),,
1.129210500000000,1 (0x31),,
1.129305900000000,1 (0x31),,
1.129401400000000,3 (0x33),,
1.129496800000000,1 (0x31),,
1.129592300000000,0 (0x30),,
1.129687800000000,0 (0x30),,
1.129783200000000,0 (0x30),,
1.129878700000000,2 (0x32),,
1.129974100000000,0 (0x30),,
1.130069500000000,0 (0x30),,
1.130165000000000,1 (0x31),,
1.130260500000000,1 (0x31),,
1.130355900000000,0 (0x30),,
1.130451400000000,1 (0x31),,
1.130546800000000,0 (0x30),,
1.130642300000000,'0' (0x00),,
1.130737700000000,'0' (0x00),,
1.130833200000000,'0' (0x00),,
1.130928600000000,'0' (0x00),,
1.131024100000000,'0' (0x00),,
1.131119500000000,'4' (0x04),,
1.131215000000000,'2' (0x02),,
1.131310500000000,\n (0x0A),,
1.228635500000000,\r (0x0D),,
1.228730900000000,0 (0x30),,
1.228826400000000,0 (0x30),,
1.228921800000000,1 (0x31),,
1.229017300000000,6 (0x36),,
1.229112700000000,0 (0x30),,
1.229208200000000,0 (0x30),,
1.229303600000000,1 (0x31),,
1.229399100000000,1 (0x31),,
1.229494600000000,3 (0x33),,
1.229590000000000,1 (0x31),,
1.229685500000000,0 (0x30),,
1.229780900000000,0 (0x30),,
1.229876400000000,0 (0x30),,
1.229971800000000,2 (0x32),,
1.230067300000000,0 (0x30),,
1.230162700000000,0 (0x30),,
1.230258200000000,1 (0x31),,
1.230353600000000,1 (0x31),,
1.230449100000000,0 (0x30),,
1.230544500000000,1 (0x31),,
1.230640000000000,0 (0x30),,
1.230735400000000,'0' (0x00),,
1.230830900000000,'0' (0x00),,
1.230926300000000,'0' (0x00),,
1.231021800000000,'0' (0x00),,
1.231117300000000,'0' (0x00),,
1.231212700000000,'4' (0x04),,
1.231308200000000,'2' (0x02),,
1.231403600000000,\n (0x0A),,
1.328662100000000,\r (0x0D),,
1.328757500000000,0 (0x30),,
1.328853000000000,0 (0x30),,
1.328948500000000,1 (0x31),,
1.329043900000000,6 (0x36),,
1.329139300000000,0 (0x30),,
1.329234800000000,0 (0x30),,
1.329330200000000,1 (0x31),,
1.329425700000000,1 (0x31),,
1.329521200000000,3 (0x33),,
1.329616600000000,1 (0x31),,
1.329712100000000,0 (0x30),,
1.329807500000000,0 (0x30),,
1.329903000000000,0 (0x30),,
1.329998400000000,2 (0x32),,
1.330093900000000,0 (0x30),,
1.330189300000000,0 (0x30),,
1.330284800000000,1 (0x31),,
1.330380200000000,1 (0x31),,
1.330475700000000,0 (0x30),,
1.330571200000000,1 (0x31),,
1.330666600000000,0 (0x30),,
1.330762100000000,'0' (0x00),,
1.330857500000000,'0' (0x00),,
1.330953000000000,'0' (0x00),,
1.331048400000000,'0' (0x00),,
1.331143900000000,'0' (0x00),,
1.331239300000000,'4' (0x04),,
1.331334800000000,'2' (0x02),,
1.331430200000000,\n (0x0A),,
1.428670900000000,\r (0x0D),,
1.428766300000000,0 (0x30),,
1.428861800000000,0 (0x30),,
1.428957300000000,1 (0x31),,
1.429061400000000,4 (0x34),,
1.429156800000000,0 (0x30),,
1.429252300000000,0 (0x30),,
1.429347700000000,1 (0x31),,
1.429443200000000,1 (0x31),,
1.429538600000000,3 (0x33),,
1.429634100000000,1 (0x31),,
1.429729500000000,0 (0x30),,
1.429825000000000,0 (0x30),,
1.429920500000000,0 (0x30),,
1.430015900000000,2 (0x32),,
1.430111400000000,0 (0x30),,
1.430206800000000,0 (0x30),,
1.430302300000000,1 (0x31),,
1.430397700000000,1 (0x31),,
1.430493200000000,0 (0x30),,
1.430588600000000,1 (0x31),,
1.430684100000000,0 (0x30),,
1.430779500000000,'0' (0x00),,
1.430875000000000,'0' (0x00),,
1.430970400000000,'0' (0x00),,
1.431065900000000,'0' (0x00),,
1.431161300000000,'0' (0x00),,
1.431256800000000,'4' (0x04),,
1.431352200000000,'0' (0x00),,
1.431447700000000,\n (0x0A),,
1.528755100000000,\r (0x0D),,
1.528850600000000,0 (0x30),,
1.528946000000000,0 (0x30),,
1.529041500000000,1 (0x31),,
1.529136900000000,4 (0x34),,
1.529232400000000,0 (0x30),,
1.529327800000000,0 (0x30),,
1.529423300000000,1 (0x31),,
1.529518700000000,1 (0x31),,
1.529614200000000,3 (0x33),,
1.529709600000000,1 (0x31),,
1.529805100000000,0 (0x30),,
1.529900500000000,0 (0x30),,
1.529996000000000,0 (0x30),,
1.530091500000000,2 (0x32),,
1.530186900000000,0 (0x30),,
1.530282400000000,0 (0x30),,
1.530377800000000,1 (0x31),,
1.530473300000000,1 (0x31),,
1.530568700000000,0 (0x30),,
1.530664200000000,1 (0x31),,
1.530759600000000,0 (0x30),,
1.530855100000000,'0' (0x00),,
1.530950600000000,'0' (0x00),,
1.531046000000000,'0' (0x00),,
1.531141400000000,'0' (0x00),,
1.531236900000000,'0' (0x00),,
1.531332300000000,'4' (0x04),,
1.531427800000000,'0' (0x00),,
1.531523200000000,\n (0x0A),,
1.629241600000000,\r (0x0D),,
1.629337100000000,0 (0x30),,
1.629432500000000,0 (0x30),,
1.629528000000000,1 (0x31),,
1.629632100000000,6 (0x36),,
1.629727600000000,0 (0x30),,
1.629823000000000,0 (0x30),,
1.629918500000000,1 (0x31),,
1.630013900000000,1 (0x31),,
1.630109400000000,3 (0x33),,
1.630204800000000,1 (0x31),,
1.630300300000000,0 (0x30),,
1.630395700000000,0 (0x30),,
1.630491200000000,0 (0x30),,
1.630586700000000,2 (0x32),,
1.630682100000000,0 (0x30),,
1.630777500000000,0 (0x30),,
1.630873000000000,1 (0x31),,
1.630968400000000,1 (0x31),,
1.631063900000000,0 (0x30),,
1.631159300000000,1 (0x31),,
1.631254800000000,0 (0x30),,
1.631350300000000,'0' (0x00),,
1.631445700000000,'0' (0x00),,
1.631541200000000,'0' (0x00),,
1.631636600000000,'0' (0x00),,
1.631732100000000,'0' (0x00),,
1.631827500000000,'4' (0x04),,
1.631923000000000,'2' (0x02),,
1.632018400000000,\n (0x0A),,
1.729203900000000,\r (0x0D),,
1.729299300000000,0 (0x30),,
1.729394800000000,0 (0x30),,
1.729490200000000,1 (0x31),,
1.729594300000000,2 (0x32),,
1.729689800000000,0 (0x30),,
1.729785200000000,0 (0x30),,
1.729880700000000,1 (0x31),,
1.729976100000000,1 (0x31),,
1.730071600000000,3 (0x33),,
1.730167100000000,1 (0x31),,
1.730262500000000,0 (0x30),,
1.730358000000000,0 (0x30),,
1.730453400000000,0 (0x30),,
1.730548900000000,2 (0x32),,
1.730644300000000,0 (0x30),,
1.730739800000000,0 (0x30),,
1.730835200000000,1 (0x31),,
1.730930700000000,1 (0x31),,
1.731026100000000,0 (0x30),,
1.731121600000000,1 (0x31),,
1.731217000000000,0 (0x30),,
1.731312500000000,'0' (0x00),,
1.731407900000000,'0' (0x00),,
1.731503400000000,'0' (0x00),,
1.731598800000000,'0' (0x00),,
1.731694300000000,'0' (0x00),,
1.731789800000000,'3' (0x03),,
1.731885200000000,'254' (0xFE),,
1.731980700000000,\n (0x0A),,
1.829312700000000,\r (0x0D),,
1.829408200000000,0 (0x30),,
1.829503600000000,0 (0x30),,
1.829599100000000,1 (0x31),,
1.829694500000000,4 (0x34),,
1.829790000000000,0 (0x30),,
1.829885400000000,0 (0x30),,
1.829980900000000,1 (0x31),,
1.830076300000000,1 (0x31),,
1.830171800000000,3 (0x33),,
1.830267200000000,1 (0x31),,
1.830362700000000,0 (0x30),,
1.830458100000000,0 (0x30),,
1.830553600000000,0 (0x30),,
1.830649100000000,2 (0x32),,
1.830744500000000,0 (0x30),,
1.830840000000000,0 (0x30),,
1.830935400000000,1 (0x31),,
1.831030900000000,1 (0x31),,
1.831126300000000,0 (0x30),,
1.831221800000000,1 (0x31),,
1.831317200000000,0 (0x30),,
1.831412700000000,'0' (0x00),,
1.831508100000000,'0' (0x00),,
1.831603600000000,'0' (0x00),,
1.831699000000000,'0' (0x00),,
1.831794500000000,'0' (0x00),,
1.831889900000000,'4' (0x04),,
1.831985400000000,'0' (0x00),,
1.832080800000000,\n (0x0A),,
1.929205200000000,\r (0x0D),,
1.929300700000000,0 (0x30),,
1.929396100000000,0 (0x30),,
1.929491600000000,1 (0x31),,
1.929587000000000,6 (0x36),,
1.929682500000000,0 (0x30),,
1.929778000000000,0 (0x30),,
1.929873400000000,1 (0x31),,
1.929968900000000,1 (0x31),,
1.930064300000000,3 (0x33),,
1.930159800000000,1 (0x31),,
1.930255200000000,0 (0x30),,
1.930350700000000,0 (0x30),,
1.930446100000000,0 (0x30),,
1.930541600000000,2 (0x32),,
1.930637000000000,0 (0x30),,
1.930732500000000,0 (0x30),,
1.930827900000000,1 (0x31),,
1.930923400000000,1 (0x31),,
1.931018800000000,0 (0x30),,
1.931114300000000,1 (0x31),,
1.931209700000000,0 (0x30),,
1.931305200000000,'0' (0x00),,
1.931400700000000,'0' (0x00),,
1.931496100000000,'0' (0x00),,
1.931591600000000,'0' (0x00),,
1.931687000000000,'0' (0x00),,
1.931782500000000,'4' (0x04),,
1.931877900000000,'2' (0x02),,
1.931973400000000,\n (0x0A),,
2.029294100000000,\r (0x0D),,
2.029389500000000,0 (0x30),,
2.029485000000000,0 (0x30),,
2.029580500000000,1 (0x31),,
2.029675900000000,4 (0x34),,
2.029771400000000,0 (0x30),,
2.029866800000000,0 (0x30),,
2.029962300000000,1 (0x31),,
2.030057700000000,3 (0x33),,
2.030153200000000,3 (0x33),,
2.030248600000000,1 (0x31),,
2.030344100000000,0 (0x30),,
2.030439500000000,0 (0x30),,
2.030535000000000,0 (0x30),,
2.030630400000000,2 (0x32),,
2.030725900000000,0 (0x30),,
2.030821300000000,0 (0x30),,
2.030916800000000,1 (0x31),,
2.031012200000000,1 (0x31),,
2.031107700000000,0 (0x30),,
2.031203100000000,1 (0x31),,
2.031298600000000,0 (0x30),,
2.031394100000000,'0' (0x00),,
2.031489500000000,'0' (0x00),,
2.031585000000000,'0' (0x00),,
2.031680400000000,'0' (0x00),,
2.031775900000000,'0' (0x00),,
2.031871300000000,'4' (0x04),,
2.031966800000000,'2' (0x02),,
2.032062200000000,\n (0x0A),,
2.128619500000000,\r (0x0D),,
2.128715000000000,0 (0x30),,
2.128810400000000,0 (0x30),,
2.128905900000000,1 (0x31),,
2.129001300000000,4 (0x34),,
2.129096800000000,0 (0x30),,
2.129192200000000,0 (0x30),,
2.129287700000000,1 (0x31),,
2.129383100000000,1 (0x31),,
2.129478600000000,3 (0x33),,
2.129574000000000,1 (0x31),,
2.129669500000000,0 (0x30),,
2.129764900000000,0 (0x30),,
2.129860400000000,0 (0x30),,
2.129955800000000,2 (0x32),,
2.130051300000000,0 (0x30),,
2.130146800000000,0 (0x30),,
2.130242200000000,1 (0x31),,
2.130337700000000,1 (0x31),,
2.130433100000000,0 (0x30),,
2.130528600000000,1 (0x31),,
2.130624000000000,0 (0x30),,
2.130719500000000,'0' (0x00),,
2.130814900000000,'0' (0x00),,
2.130910400000000,'0' (0x00),,
2.131005800000000,'0' (0x00),,
2.131101300000000,'0' (0x00),,
2.131196700000000,'4' (0x04),,
2.131292200000000,'0' (0x00),,
2.131387600000000,\n (0x0A),,
2.228622800000000,\r (0x0D),,
2.228718200000000,0 (0x30),,
2.228813700000000,0 (0x30),,
2.228909100000000,1 (0x31),,
2.229013200000000,2 (0x32),,
2.229108700000000,0 (0x30),,
2.229204200000000,0 (0x30),,
2.229299600000000,1 (0x31),,
2.229395100000000,1 (0x31),,
2.229490500000000,3 (0x33),,
2.229586000000000,1 (0x31),,
2.229681400000000,0 (0x30),,
2.229776900000000,0 (0x30),,
2.229872300000000,0 (0x30),,
2.229967800000000,2 (0x32),,
