Time [s],Value,Parity Error,Framing Error
1.212863900000000,'0' (0x00),,Error
1.221992300000000,'0' (0x00),,Error
1.697841500000000,'0' (0x00),,Error
2.360176900000000,'170' (0xAA),,
2.360264100000000,'5' (0x05),,
2.360351400000000,'1' (0x01),,
2.360438700000000,'1' (0x01),,
2.360525900000000,'1' (0x01),,
2.360613200000000,'1' (0x01),,
2.360700400000000,'161' (0xA1),,
2.360787700000000,Z (0x5A),,
2.360875000000000,'172' (0xAC),,
2.465709800000000,\r (0x0D),,
2.465797100000000,'161' (0xA1),,
2.465884300000000,F (0x46),,
2.465971500000000,0 (0x30),,
2.466058800000000,_ (0x5F),,
2.466146000000000,F (0x46),,
2.466233300000000,a (0x61),,
2.466320500000000,s (0x73),,
2.466407800000000,t (0x74),,
2.466495000000000,W (0x57),,
2.466582200000000,h (0x68),,
2.466669500000000,e (0x65),,
2.466756700000000,e (0x65),,
2.466844000000000,l (0x6C),,
2.466931200000000,I (0x49),,
2.467018500000000,E (0x45),,
2.467105800000000,S (0x53),,
2.467193000000000,0 (0x30),,
2.467280200000000,4 (0x34),,
2.467367500000000,0 (0x30),,
2.467454700000000,I (0x49),,
2.467542000000000,E (0x45),,
2.467629200000000,S (0x53),,
2.467716500000000,0 (0x30),,
2.467803700000000,4 (0x34),,
2.467891000000000,6 (0x36),,
2.467978200000000,'0' (0x00),,
2.468065400000000,'7' (0x07),,
2.468152700000000,'233' (0xE9),,
2.468239900000000,\n (0x0A),,
2.565141900000000,\r (0x0D),,
2.565229200000000,0 (0x30),,
2.565316500000000,0 (0x30),,
2.565403700000000,0 (0x30),,
2.565491000000000,0 (0x30),,
2.565578300000000,0 (0x30),,
2.565665500000000,0 (0x30),,
2.565752800000000,0 (0x30),,
2.565840000000000,0 (0x30),,
2.565927300000000,0 (0x30),,
2.566014600000000,0 (0x30),,
2.566101800000000,6 (0x36),,
2.566189100000000,0 (0x30),,
2.566276300000000,6 (0x36),,
2.566363600000000,8 (0x38),,
2.566450800000000,0 (0x30),,
2.566538100000000,0 (0x30),,
2.566625400000000,0 (0x30),,
2.566712600000000,0 (0x30),,
2.566799900000000,0 (0x30),,
2.566887100000000,0 (0x30),,
2.566974400000000,0 (0x30),,
2.567061600000000,0 (0x30),,
2.567148900000000,0 (0x30),,
2.567236100000000,0 (0x30),,
2.567323400000000,0 (0x30),,
2.567410600000000,0 (0x30),,
2.567497900000000,0 (0x30),,
2.567585100000000,0 (0x30),,
2.567672400000000,0 (0x30),,
2.567759600000000,0 (0x30),,
2.567846900000000,0 (0x30),,
2.567934100000000,0 (0x30),,
2.568021400000000,0 (0x30),,
2.568108600000000,0 (0x30),,
2.568195800000000,0 (0x30),,
2.568283100000000,0 (0x30),,
2.568370300000000,'6' (0x06),,
2.568457600000000,'212' (0xD4),,
2.568544800000000,\n (0x0A),,
2.664571200000000,\r (0x0D),,
2.664658400000000,0 (0x30),,
2.664745700000000,0 (0x30),,
2.664832900000000,0 (0x30),,
2.664920200000000,0 (0x30),,
2.665007400000000,0 (0x30),,
2.665094700000000,0 (0x30),,
2.665181900000000,0 (0x30),,
2.665269100000000,0 (0x30),,
2.665356400000000,0 (0x30),,
2.665443600000000,0 (0x30),,
2.665530900000000,6 (0x36),,
2.665618100000000,0 (0x30),,
2.665705400000000,6 (0x36),,
2.665792600000000,8 (0x38),,
2.665879900000000,0 (0x30),,
2.665967100000000,0 (0x30),,
2.666054300000000,0 (0x30),,
2.666141600000000,0 (0x30),,
2.666228800000000,0 (0x30),,
2.666316100000000,0 (0x30),,
2.666403300000000,0 (0x30),,
2.666490600000000,0 (0x30),,
2.666577800000000,0 (0x30),,
2.666665000000000,0 (0x30),,
2.666752300000000,0 (0x30),,
2.666839500000000,0 (0x30),,
2.666926800000000,0 (0x30),,
2.667014000000000,0 (0x30),,
2.667101200000000,0 (0x30),,
2.667188500000000,0 (0x30),,
2.667275700000000,0 (0x30),,
2.667363000000000,0 (0x30),,
2.667450200000000,0 (0x30),,
2.667537500000000,0 (0x30),,
2.667624700000000,0 (0x30),,
2.667712000000000,0 (0x30),,
2.667799200000000,'6' (0x06),,
2.667886400000000,'212' (0xD4),,
2.667973700000000,\n (0x0A),,
2.764006000000000,\r (0x0D),,
2.764093300000000,0 (0x30),,
2.764180500000000,0 (0x30),,
2.764267800000000,0 (0x30),,
2.764355000000000,0 (0x30),,
2.764442300000000,0 (0x30),,
2.764529500000000,0 (0x30),,
2.764616800000000,0 (0x30),,
2.764704000000000,0 (0x30),,
2.764791300000000,0 (0x30),,
2.764878500000000,0 (0x30),,
2.764965800000000,6 (0x36),,
2.765053000000000,0 (0x30),,
2.765140300000000,6 (0x36),,
2.765227500000000,8 (0x38),,
2.765314800000000,0 (0x30),,
2.765402000000000,0 (0x30),,
2.765489300000000,0 (0x30),,
2.765576500000000,0 (0x30),,
2.765663800000000,0 (0x30),,
2.765751000000000,0 (0x30),,
2.765838300000000,0 (0x30),,
2.765925500000000,0 (0x30),,
2.766012800000000,0 (0x30),,
2.766100000000000,0 (0x30),,
2.766187300000000,0 (0x30),,
2.766274500000000,0 (0x30),,
2.766361800000000,0 (0x30),,
2.766449000000000,0 (0x30),,
2.766536200000000,0 (0x30),,
2.766623500000000,0 (0x30),,
2.766710700000000,0 (0x30),,
2.766798000000000,0 (0x30),,
2.766885200000000,0 (0x30),,
2.766972500000000,0 (0x30),,
2.767059700000000,0 (0x30),,
2.767147000000000,0 (0x30),,
2.767234200000000,'6' (0x06),,
2.767321500000000,'212' (0xD4),,
2.767408700000000,\n (0x0A),,
2.866411900000000,\r (0x0D),,
2.866499100000000,0 (0x30),,
2.866586400000000,0 (0x30),,
2.866673600000000,0 (0x30),,
2.866760900000000,0 (0x30),,
2.866848200000000,0 (0x30),,
2.866935400000000,0 (0x30),,
2.867022700000000,0 (0x30),,
2.867109900000000,0 (0x30),,
2.867197200000000,0 (0x30),,
2.867284400000000,0 (0x30),,
2.867371700000000,6 (0x36),,
2.867458900000000,0 (0x30),,
2.867546200000000,6 (0x36),,
2.867633400000000,8 (0x38),,
2.867720700000000,0 (0x30),,
2.867807900000000,0 (0x30),,
2.867895200000000,0 (0x30),,
2.867982400000000,0 (0x30),,
2.868069700000000,0 (0x30),,
2.868156900000000,0 (0x30),,
2.868244200000000,0 (0x30),,
2.868331400000000,0 (0x30),,
2.868418700000000,0 (0x30),,
2.868505900000000,0 (0x30),,
2.868593200000000,0 (0x30),,
2.868680400000000,0 (0x30),,
2.868767700000000,0 (0x30),,
2.868854900000000,0 (0x30),,
2.868942200000000,0 (0x30),,
2.869029400000000,0 (0x30),,
2.869116700000000,0 (0x30),,
2.869203900000000,0 (0x30),,
2.869291200000000,0 (0x30),,
2.869378400000000,0 (0x30),,
2.869465700000000,0 (0x30),,
2.869552900000000,0 (0x30),,
2.869640200000000,'6' (0x06),,
2.869727500000000,'212' (0xD4),,
2.869814700000000,\n (0x0A),,
2.965839600000000,\r (0x0D),,
2.965926800000000,0 (0x30),,
2.966014100000000,0 (0x30),,
2.966101300000000,0 (0x30),,
2.966188600000000,0 (0x30),,
2.966275800000000,0 (0x30),,
2.966363100000000,0 (0x30),,
2.966450300000000,0 (0x30),,
2.966537500000000,0 (0x30),,
2.966624800000000,0 (0x30),,
2.966712000000000,0 (0x30),,
2.966799300000000,6 (0x36),,
2.966886500000000,0 (0x30),,
2.966973800000000,6 (0x36),,
2.967061000000000,8 (0x38),,
2.967148200000000,0 (0x30),,
2.967235500000000,0 (0x30),,
2.967322700000000,0 (0x30),,
2.967410000000000,0 (0x30),,
2.967497200000000,0 (0x30),,
2.967584500000000,0 (0x30),,
2.967671700000000,0 (0x30),,
2.967758900000000,0 (0x30),,
2.967846200000000,0 (0x30),,
2.967933400000000,0 (0x30),,
2.968020600000000,0 (0x30),,
2.968107900000000,0 (0x30),,
2.968195100000000,0 (0x30),,
2.968282400000000,0 (0x30),,
2.968369600000000,0 (0x30),,
2.968456800000000,0 (0x30),,
2.968544100000000,0 (0x30),,
2.968631300000000,0 (0x30),,
2.968718600000000,0 (0x30),,
2.968805800000000,0 (0x30),,
2.968893100000000,0 (0x30),,
2.968980300000000,0 (0x30),,
2.969067600000000,'6' (0x06),,
2.969154800000000,'212' (0xD4),,
2.969242000000000,\n (0x0A),,
3.065267100000000,\r (0x0D),,
3.065354400000000,1 (0x31),,
3.065441600000000,0 (0x30),,
3.065528900000000,0 (0x30),,
3.065616100000000,0 (0x30),,
3.065703400000000,0 (0x30),,
3.065790600000000,0 (0x30),,
3.065877900000000,0 (0x30),,
3.065965100000000,0 (0x30),,
3.066052400000000,0 (0x30),,
3.066139700000000,0 (0x30),,
3.066226900000000,6 (0x36),,
3.066314100000000,0 (0x30),,
3.066401400000000,6 (0x36),,
3.066488700000000,8 (0x38),,
3.066575900000000,1 (0x31),,
3.066663200000000,4 (0x34),,
3.066750400000000,0 (0x30),,
3.066837700000000,6 (0x36),,
3.066924900000000,0 (0x30),,
3.067012200000000,0 (0x30),,
3.067099400000000,0 (0x30),,
3.067186700000000,0 (0x30),,
3.067273900000000,0 (0x30),,
3.067361200000000,0 (0x30),,
3.067448400000000,0 (0x30),,
3.067535700000000,0 (0x30),,
3.067623000000000,0 (0x30),,
3.067710200000000,0 (0x30),,
3.067797500000000,0 (0x30),,
3.067884700000000,0 (0x30),,
3.067972000000000,0 (0x30),,
3.068059200000000,0 (0x30),,
3.068146500000000,0 (0x30),,
3.068233700000000,0 (0x30),,
3.068321000000000,0 (0x30),,
3.068408200000000,0 (0x30),,
3.068495500000000,'6' (0x06),,
3.068582700000000,'224' (0xE0),,
3.068670000000000,\n (0x0A),,
3.164692500000000,\r (0x0D),,
3.164779700000000,1 (0x31),,
3.164867000000000,0 (0x30),,
3.164954200000000,0 (0x30),,
3.165041500000000,0 (0x30),,
3.165128700000000,0 (0x30),,
3.165215900000000,0 (0x30),,
3.165303200000000,0 (0x30),,
3.165390400000000,0 (0x30),,
3.165477700000000,0 (0x30),,
3.165564900000000,0 (0x30),,
3.165652200000000,6 (0x36),,
3.165739400000000,0 (0x30),,
3.165826700000000,6 (0x36),,
3.165913900000000,8 (0x38),,
3.166001100000000,1 (0x31),,
3.166088400000000,4 (0x34),,
3.166175600000000,0 (0x30),,
3.166262900000000,6 (0x36),,
3.166350100000000,0 (0x30),,
3.166437400000000,0 (0x30),,
3.166524600000000,0 (0x30),,
3.166611900000000,0 (0x30),,
3.166699100000000,0 (0x30),,
3.166786300000000,0 (0x30),,
3.166873600000000,0 (0x30),,
3.166960800000000,0 (0x30),,
3.167048100000000,0 (0x30),,
3.167135300000000,0 (0x30),,
3.167222600000000,0 (0x30),,
3.167309800000000,0 (0x30),,
3.167397000000000,0 (0x30),,
3.167484300000000,0 (0x30),,
3.167571500000000,0 (0x30),,
3.167658800000000,0 (0x30),,
3.167746000000000,0 (0x30),,
3.167833200000000,0 (0x30),,
3.167920500000000,'6' (0x06),,
3.168007700000000,'224' (0xE0),,
3.168094900000000,\n (0x0A),,
3.264117900000000,\r (0x0D),,
3.264205200000000,1 (0x31),,
3.264292400000000,0 (0x30),,
3.264379600000000,0 (0x30),,
3.264466900000000,0 (0x30),,
3.264554100000000,0 (0x30),,
3.264641400000000,0 (0x30),,
3.264728600000000,0 (0x30),,
3.264815800000000,0 (0x30),,
3.264903100000000,0 (0x30),,
3.264990300000000,0 (0x30),,
3.265077600000000,6 (0x36),,
3.265164800000000,0 (0x30),,
3.265252100000000,6 (0x36),,
3.265339300000000,8 (0x38),,
3.265426500000000,1 (0x31),,
3.265513800000000,4 (0x34),,
3.265601000000000,0 (0x30),,
3.265688300000000,6 (0x36),,
3.265775500000000,0 (0x30),,
3.265862800000000,0 (0x30),,
3.265950000000000,0 (0x30),,
3.266037300000000,0 (0x30),,
3.266124500000000,0 (0x30),,
3.266211700000000,0 (0x30),,
3.266299000000000,0 (0x30),,
3.266386200000000,0 (0x30),,
3.266473500000000,0 (0x30),,
3.266560700000000,0 (0x30),,
3.266648000000000,0 (0x30),,
3.266735200000000,0 (0x30),,
3.266822400000000,0 (0x30),,
3.266909700000000,0 (0x30),,
3.266996900000000,0 (0x30),,
3.267084200000000,0 (0x30),,
3.267171400000000,0 (0x30),,
3.267258700000000,0 (0x30),,
3.267345900000000,'6' (0x06),,
3.267433200000000,'224' (0xE0),,
3.267520400000000,\n (0x0A),,
3.363550500000000,\r (0x0D),,
3.363637700000000,1 (0x31),,
3.363725000000000,0 (0x30),,
3.363812200000000,0 (0x30),,
3.363899400000000,0 (0x30),,
3.363986700000000,0 (0x30),,
3.364073900000000,0 (0x30),,
3.364161200000000,0 (0x30),,
3.364248400000000,0 (0x30),,
3.364335700000000,0 (0x30),,
3.364422900000000,0 (0x30),,
3.364510200000000,6 (0x36),,
3.364597400000000,0 (0x30),,
3.364684700000000,6 (0x36),,
3.364771900000000,8 (0x38),,
3.364859200000000,1 (0x31),,
3.364946400000000,4 (0x34),,
3.365033700000000,0 (0x30),,
3.365120900000000,6 (0x36),,
3.365208200000000,0 (0x30),,
3.365295400000000,0 (0x30),,
3.365382700000000,0 (0x30),,
3.365469900000000,0 (0x30),,
3.365557200000000,0 (0x30),,
3.365644400000000,0 (0x30),,
3.365731700000000,0 (0x30),,
3.365818900000000,0 (0x30),,
3.365906100000000,0 (0x30),,
3.365993400000000,0 (0x30),,
3.366080600000000,0 (0x30),,
3.366167900000000,0 (0x30),,
3.366255100000000,0 (0x30),,
3.366342400000000,0 (0x30),,
3.366429600000000,0 (0x30),,
3.366516900000000,0 (0x30),,
3.366604100000000,0 (0x30),,
3.366691300000000,0 (0x30),,
3.366778600000000,'6' (0x06),,
3.366865800000000,'224' (0xE0),,
3.366953100000000,\n (0x0A),,
3.462977500000000,\r (0x0D),,
3.463064800000000,1 (0x31),,
3.463152000000000,0 (0x30),,
3.463239300000000,0 (0x30),,
3.463326500000000,0 (0x30),,
3.463413700000000,0 (0x30),,
3.463501000000000,0 (0x30),,
3.463588200000000,0 (0x30),,
3.463675500000000,0 (0x30),,
3.463762700000000,0 (0x30),,
3.463850000000000,0 (0x30),,
3.463937200000000,6 (0x36),,
3.464024500000000,0 (0x30),,
3.464111700000000,6 (0x36),,
3.464199000000000,8 (0x38),,
3.464286200000000,1 (0x31),,
3.464373500000000,4 (0x34),,
3.464460700000000,0 (0x30),,
3.464548000000000,6 (0x36),,
3.464635200000000,0 (0x30),,
3.464722500000000,0 (0x30),,
3.464809700000000,0 (0x30),,
3.464897000000000,0 (0x30),,
3.464984200000000,0 (0x30),,
3.465071500000000,0 (0x30),,
3.465158700000000,0 (0x30),,
3.465246000000000,0 (0x30),,
3.465333200000000,0 (0x30),,
3.465420500000000,0 (0x30),,
3.465507700000000,0 (0x30),,
3.465595000000000,0 (0x30),,
3.465682200000000,0 (0x30),,
3.465769500000000,0 (0x30),,
3.465856700000000,0 (0x30),,
3.465944000000000,0 (0x30),,
3.466031200000000,0 (0x30),,
3.466118500000000,0 (0x30),,
3.466205700000000,'6' (0x06),,
3.466293000000000,'224' (0xE0),,
3.466380200000000,\n (0x0A),,
3.565396700000000,\r (0x0D),,
3.565484000000000,1 (0x31),,
3.565571300000000,0 (0x30),,
3.565658500000000,0 (0x30),,
3.565745800000000,0 (0x30),,
3.565833000000000,0 (0x30),,
3.565920300000000,0 (0x30),,
3.566007500000000,0 (0x30),,
3.566094800000000,0 (0x30),,
3.566182000000000,0 (0x30),,
3.566269200000000,0 (0x30),,
3.566356500000000,6 (0x36),,
3.566443700000000,0 (0x30),,
3.566531000000000,6 (0x36),,
3.566618200000000,8 (0x38),,
3.566705500000000,1 (0x31),,
3.566792700000000,4 (0x34),,
3.566880000000000,0 (0x30),,
3.566967200000000,7 (0x37),,
3.567054500000000,0 (0x30),,
3.567141700000000,0 (0x30),,
3.567229000000000,0 (0x30),,
3.567316200000000,0 (0x30),,
3.567403500000000,0 (0x30),,
3.567490700000000,0 (0x30),,
3.567577900000000,0 (0x30),,
3.567665200000000,0 (0x30),,
3.567752400000000,0 (0x30),,
3.567839700000000,0 (0x30),,
3.567926900000000,0 (0x30),,
3.568014200000000,0 (0x30),,
3.568101400000000,0 (0x30),,
3.568188700000000,0 (0x30),,
3.568275900000000,0 (0x30),,
3.568363200000000,0 (0x30),,
3.568450400000000,0 (0x30),,
3.568537600000000,0 (0x30),,
3.568624900000000,'6' (0x06),,
3.568712100000000,'225' (0xE1),,
3.568799400000000,\n (0x0A),,
3.664825900000000,\r (0x0D),,
3.664913200000000,1 (0x31),,
3.665000400000000,0 (0x30),,
3.665087600000000,0 (0x30),,
3.665174900000000,0 (0x30),,
3.665262100000000,0 (0x30),,
3.665349400000000,0 (0x30),,
3.665436600000000,0 (0x30),,
3.665523900000000,0 (0x30),,
3.665611100000000,0 (0x30),,
3.665698400000000,0 (0x30),,
3.665785600000000,6 (0x36),,
3.665872900000000,0 (0x30),,
3.665960100000000,6 (0x36),,
3.666047400000000,8 (0x38),,
3.666134600000000,1 (0x31),,
3.666221900000000,4 (0x34),,
3.666309100000000,0 (0x30),,
3.666396400000000,7 (0x37),,
3.666483600000000,0 (0x30),,
3.666570800000000,0 (0x30),,
3.666658100000000,0 (0x30),,
3.666745300000000,0 (0x30),,
3.666832600000000,0 (0x30),,
3.666919800000000,0 (0x30),,
3.667007100000000,0 (0x30),,
3.667094300000000,0 (0x30),,
3.667181600000000,0 (0x30),,
3.667268800000000,0 (0x30),,
3.667356100000000,0 (0x30),,
3.667443300000000,0 (0x30),,
3.667530600000000,0 (0x30),,
3.667617800000000,0 (0x30),,
3.667705000000000,0 (0x30),,
3.667792300000000,0 (0x30),,
3.667879500000000,0 (0x30),,
3.667966800000000,0 (0x30),,
3.668054000000000,'6' (0x06),,
3.668141300000000,'225' (0xE1),,
3.668228500000000,\n (0x0A),,
3.764252000000000,\r (0x0D),,
3.764339200000000,1 (0x31),,
3.764426500000000,0 (0x30),,
3.764513700000000,0 (0x30),,
3.764601000000000,0 (0x30),,
3.764688200000000,0 (0x30),,
3.764775500000000,0 (0x30),,
3.764862700000000,0 (0x30),,
3.764949900000000,0 (0x30),,
3.765037200000000,0 (0x30),,
3.765124400000000,0 (0x30),,
3.765211700000000,6 (0x36),,
3.765298900000000,0 (0x30),,
3.765386100000000,6 (0x36),,
3.765473400000000,8 (0x38),,
3.765560600000000,1 (0x31),,
3.765647900000000,4 (0x34),,
3.765735100000000,0 (0x30),,
3.765822400000000,7 (0x37),,
3.765909600000000,0 (0x30),,
3.765996900000000,0 (0x30),,
3.766084100000000,0 (0x30),,
3.766171400000000,0 (0x30),,
3.766258600000000,0 (0x30),,
3.766345900000000,0 (0x30),,
3.766433100000000,0 (0x30),,
3.766520300000000,0 (0x30),,
3.766607600000000,0 (0x30),,
3.766694800000000,0 (0x30),,
3.766782100000000,0 (0x30),,
3.766869300000000,0 (0x30),,
3.766956600000000,0 (0x30),,
3.767043800000000,0 (0x30),,
3.767131100000000,0 (0x30),,
3.767218300000000,0 (0x30),,
3.767305600000000,0 (0x30),,
3.767392800000000,0 (0x30),,
3.767480100000000,'6' (0x06),,
3.767567300000000,'225' (0xE1),,
3.767654600000000,\n (0x0A),,
3.863679600000000,\r (0x0D),,
3.863766900000000,1 (0x31),,
3.863854100000000,0 (0x30),,
3.863941300000000,0 (0x30),,
3.864028600000000,0 (0x30),,
3.864115800000000,0 (0x30),,
3.864203100000000,0 (0x30),,
3.864290300000000,0 (0x30),,
3.864377600000000,0 (0x30),,
3.864464800000000,0 (0x30),,
3.864552000000000,0 (0x30),,
3.864639300000000,6 (0x36),,
3.864726500000000,0 (0x30),,
3.864813800000000,6 (0x36),,
3.864901000000000,8 (0x38),,
3.864988200000000,1 (0x31),,
3.865075500000000,4 (0x34),,
3.865162700000000,0 (0x30),,
3.865250000000000,7 (0x37),,
3.865337200000000,0 (0x30),,
3.865424400000000,0 (0x30),,
3.865511700000000,0 (0x30),,
3.865598900000000,0 (0x30),,
3.865686200000000,0 (0x30),,
3.865773400000000,0 (0x30),,
3.865860700000000,0 (0x30),,
3.865947900000000,0 (0x30),,
3.866035200000000,0 (0x30),,
3.866122400000000,0 (0x30),,
3.866209700000000,0 (0x30),,
3.866296900000000,0 (0x30),,
3.866384200000000,0 (0x30),,
3.866471400000000,0 (0x30),,
3.866558700000000,0 (0x30),,
3.866645900000000,0 (0x30),,
3.866733200000000,0 (0x30),,
3.866820400000000,0 (0x30),,
3.866907700000000,'6' (0x06),,
3.866994900000000,'225' (0xE1),,
3.867082200000000,\n (0x0A),,
3.963114400000000,\r (0x0D),,
3.963201600000000,1 (0x31),,
3.963288900000000,0 (0x30),,
3.963376100000000,0 (0x30),,
3.963463400000000,0 (0x30),,
3.963550600000000,0 (0x30),,
3.963637900000000,0 (0x30),,
3.963725100000000,0 (0x30),,
3.963812300000000,0 (0x30),,
3.963899600000000,0 (0x30),,
3.963986800000000,0 (0x30),,
3.964074100000000,6 (0x36),,
3.964161300000000,0 (0x30),,
3.964248600000000,6 (0x36),,
3.964335800000000,8 (0x38),,
3.964423100000000,1 (0x31),,
3.964510300000000,4 (0x34),,
3.964597600000000,0 (0x30),,
3.964684800000000,7 (0x37),,
3.964772100000000,0 (0x30),,
3.964859300000000,0 (0x30),,
3.964946600000000,0 (0x30),,
3.965033800000000,0 (0x30),,
3.965121100000000,0 (0x30),,
3.965208300000000,0 (0x30),,
3.965295500000000,0 (0x30),,
3.965382800000000,0 (0x30),,
3.965470000000000,0 (0x30),,
3.965557300000000,0 (0x30),,
3.965644500000000,0 (0x30),,
3.965731800000000,0 (0x30),,
3.965819000000000,0 (0x30),,
3.965906300000000,0 (0x30),,
3.965993500000000,0 (0x30),,
3.966080700000000,0 (0x30),,
3.966168000000000,0 (0x30),,
3.966255200000000,0 (0x30),,
3.966342500000000,'6' (0x06),,
3.966429700000000,'225' (0xE1),,
3.966517000000000,\n (0x0A),,
4.065527400000000,\r (0x0D),,
4.065614700000000,1 (0x31),,
4.065702000000000,0 (0x30),,
4.065789200000000,0 (0x30),,
4.065876500000000,0 (0x30),,
4.065963700000000,0 (0x30),,
4.066051000000000,0 (0x30),,
4.066138300000000,0 (0x30),,
4.066225500000000,0 (0x30),,
4.066312800000000,0 (0x30),,
4.066400000000000,0 (0x30),,
4.066487300000000,6 (0x36),,
4.066574600000000,0 (0x30),,
4.066661800000000,6 (0x36),,
4.066749100000000,8 (0x38),,
4.066836300000000,1 (0x31),,
4.066923600000000,4 (0x34),,
4.067010900000000,0 (0x30),,
4.067098100000000,7 (0x37),,
4.067185400000000,0 (0x30),,
4.067272600000000,0 (0x30),,
4.067359900000000,0 (0x30),,
4.067447100000000,0 (0x30),,
4.067534400000000,0 (0x30),,
4.067621600000000,0 (0x30),,
4.067708900000000,0 (0x30),,
4.067796200000000,0 (0x30),,
4.067883400000000,0 (0x30),,
4.067970700000000,0 (0x30),,
4.068057900000000,0 (0x30),,
4.068145200000000,0 (0x30),,
4.068232400000000,0 (0x30),,
4.068319700000000,0 (0x30),,
4.068406900000000,0 (0x30),,
4.068494200000000,0 (0x30),,
4.068581400000000,0 (0x30),,
4.068668700000000,0 (0x30),,
4.068755900000000,'6' (0x06),,
4.068843200000000,'225' (0xE1),,
